Circuit: * C:\Users\Rachel\Desktop\Proyecto Discretos\CMOSopamp-top.asc

WARNING: Node X2:NC_01 is floating.

WARNING: Less than two connections to node X2:NC_01.  This node is used by M:X2:1.
Instance "m:x2:8": Length shorter than recommended for a level 1 MOSFET.
Instance "m:x2:8": Width narrower than recommended for a level 1 MOSFET.
Instance "m:x2:6": Length shorter than recommended for a level 1 MOSFET.
Instance "m:x2:6": Width narrower than recommended for a level 1 MOSFET.
Instance "m:x2:5": Length shorter than recommended for a level 1 MOSFET.
Instance "m:x2:5": Width narrower than recommended for a level 1 MOSFET.
Instance "m:x2:4": Length shorter than recommended for a level 1 MOSFET.
Instance "m:x2:4": Width narrower than recommended for a level 1 MOSFET.
Instance "m:x2:3": Length shorter than recommended for a level 1 MOSFET.
Instance "m:x2:3": Width narrower than recommended for a level 1 MOSFET.
Instance "m:x2:7": Length shorter than recommended for a level 1 MOSFET.
Instance "m:x2:2": Length shorter than recommended for a level 1 MOSFET.
Instance "m:x2:2": Width narrower than recommended for a level 1 MOSFET.
Instance "m:x2:1": Length shorter than recommended for a level 1 MOSFET.
Instance "m:x2:1": Width narrower than recommended for a level 1 MOSFET.
Direct Newton iteration for .op point succeeded.
Semiconductor Device Operating Points:
                        --- MOSFET Transistors ---
Name:        m:x2:8      m:x2:6      m:x2:5      m:x2:4      m:x2:3
Model:        nmos8       nmos6       nmos5       nmos4       nmos3
Id:          2.91e-05    4.55e-05    4.50e-05    4.55e-05   -3.07e-20
Vgs:         9.04e-01    9.04e-01    9.04e-01    1.66e+00    1.66e+00
Vds:         3.30e+00    1.64e+00    9.04e-01    7.98e-02   -2.80e-09
Vbs:         0.00e+00    0.00e+00    0.00e+00   -1.64e+00   -1.64e+00
Vth:         5.00e-01    5.00e-01    5.00e-01    5.00e-01    5.00e-01
Vdsat:       4.04e-01    4.04e-01    4.04e-01    1.16e+00    1.16e+00
Gm:          1.44e-04    2.25e-04    2.23e-04    4.07e-05    1.43e-12
Gds:         4.16e-07    6.66e-07    6.66e-07    5.50e-04    5.91e-04
Gmb:         0.00e+00    0.00e+00    0.00e+00    0.00e+00    0.00e+00
Cbd:         0.00e+00    0.00e+00    0.00e+00    0.00e+00    0.00e+00
Cbs:         0.00e+00    0.00e+00    0.00e+00    0.00e+00    0.00e+00
Cgsov:       0.00e+00    0.00e+00    0.00e+00    0.00e+00    0.00e+00
Cgdov:       0.00e+00    0.00e+00    0.00e+00    0.00e+00    0.00e+00
Cgbov:       0.00e+00    0.00e+00    0.00e+00    0.00e+00    0.00e+00
Cgs:         0.00e+00    0.00e+00    0.00e+00    0.00e+00    0.00e+00
Cgd:         0.00e+00    0.00e+00    0.00e+00    0.00e+00    0.00e+00
Cgb:         0.00e+00    0.00e+00    0.00e+00    0.00e+00    0.00e+00

Name:        m:x2:7      m:x2:2      m:x2:1
Model:        pmos7       pmos2       pmos1
Id:         -2.91e-05   -4.55e-05   -1.00e-18
Vgs:        -1.58e+00   -1.66e+00   -1.66e+00
Vds:        -4.67e-03   -1.58e+00   -1.36e-14
Vbs:         0.00e+00    0.00e+00    0.00e+00
Vth:        -5.00e-01   -5.00e-01   -5.00e-01
Vdsat:      -1.08e+00   -1.16e+00   -1.16e+00
Gm:          2.71e-05    7.86e-05    8.64e-19
Gds:         6.23e-03    1.71e-06    7.39e-05
Gmb:         0.00e+00    0.00e+00    0.00e+00
Cbd:         0.00e+00    0.00e+00    0.00e+00
Cbs:         0.00e+00    0.00e+00    0.00e+00
Cgsov:       0.00e+00    0.00e+00    0.00e+00
Cgdov:       0.00e+00    0.00e+00    0.00e+00
Cgbov:       0.00e+00    0.00e+00    0.00e+00
Cgs:         0.00e+00    0.00e+00    0.00e+00
Cgd:         0.00e+00    0.00e+00    0.00e+00
Cgb:         0.00e+00    0.00e+00    0.00e+00



Date: Wed Nov 02 14:23:10 2022
Total elapsed time: 2.191 seconds.

tnom = 27
temp = 27
method = trap
totiter = 13
traniter = 0
tranpoints = 0
accept = 0
rejected = 0
matrix size = 12
fillins = 5
solver = Normal
Matrix Compiler1: 1.44 KB object code size
Matrix Compiler2: 1.19 KB object code size
